
T2B674 000:423 SEGGER J-Link V4.80g Log File (0001ms, 0264ms total)
T2B674 000:423 DLL Compiled: Feb 13 2014 20:50:02 (0001ms, 0264ms total)
T2B674 000:423 Logging started @ 2017-04-08 18:17 (0001ms, 0264ms total)
T2B674 000:424 JLINK_SetWarnOutHandler(...) (0000ms, 0264ms total)
T2B674 000:424 JLINK_OpenEx(...)
Firmware: J-Link OB-STM32F072-CortexM compiled Mar  8 2016 11:15:54
Hardware: V1.00  returns O.K. (0263ms, 0527ms total)
T2B674 000:687 JLINK_SetErrorOutHandler(...) (0000ms, 0527ms total)
T2B674 000:687 JLINK_ExecCommand("ProjectFile = "C:\Users\iamlv\Documents\GitHub\Projects\proj\yd-stm32f051c8_test\JLinkSettings.ini"", ...)  returns 0x00 (0000ms, 0527ms total)
T2B674 000:687 JLINK_ExecCommand("Device = STM32F051C8", ...)Device "STM32F051C8" selected (64 KB flash, 8 KB RAM).  returns 0x00 (0001ms, 0528ms total)
T2B674 000:688 JLINK_ExecCommand("DisableConnectionTimeout", ...)  returns 0x01 (0000ms, 0528ms total)
T2B674 000:688 JLINK_GetHardwareVersion()  returns 0x2710 (0000ms, 0528ms total)
T2B674 000:688 JLINK_GetDLLVersion()  returns 48007 (0001ms, 0529ms total)
T2B674 000:689 JLINK_GetFirmwareString(...) (0000ms, 0529ms total)
T2B674 000:689 JLINK_GetDLLVersion()  returns 48007 (0000ms, 0529ms total)
T2B674 000:689 JLINK_GetCompileDateTime() (0000ms, 0529ms total)
T2B674 000:690 JLINK_GetFirmwareString(...) (0000ms, 0529ms total)
T2B674 000:690 JLINK_GetHardwareVersion()  returns 0x2710 (0000ms, 0529ms total)
T2B674 000:690 JLINK_TIF_Select(JLINKARM_TIF_SWD)  returns 0x00 (0002ms, 0531ms total)
T2B674 000:692 JLINK_SetSpeed(2000) (0000ms, 0531ms total)
T2B674 000:692 JLINK_GetId() >0x108 TIF>Found SWD-DP with ID 0x0BB11477 >0x0D TIF> >0x28 TIF> >0x0D TIF> >0x28 TIF> >0x0D TIF> >0x21 TIF> >0x0D TIF> >0x28 TIF> >0x0D TIF> >0x28 TIF> >0x0D TIF> >0x28 TIF> >0x0D TIF> >0x21 TIF> >0x0D TIF> >0x21 TIF> >0x0D TIF> >0x28 TIF> >0x0D TIF> >0x21 TIF> >0x0D TIF> >0x21 TIF> >0x0D TIF> >0x28 TIF> >0x0D TIF> >0x28 TIF> >0x0D TIF> >0x28 TIF> >0x0D TIF> >0x21 TIF> >0x0D TIF> >0x21 TIF> >0x0D TIF> >0x28 TIF> >0x0D TIF> >0x28 TIF> >0x108 TIF>
Found SWD-DP with ID 0x0BB11477 >0x0D TIF> >0x21 TIF> >0x0D TIF> >0x28 TIF> >0x0D TIF> >0x28 TIF> >0x0D TIF> >0x21 TIF> >0x0D TIF> >0x28 TIF> >0x0D TIF> >0x21 TIF> >0x0D TIF> >0x21 TIF> >0x0D TIF> >0x21 TIF> >0x0D TIF> >0x21 TIF> >0x0D TIF> >0x28 TIF> >0x0D TIF> >0x28 TIF> >0x0D TIF> >0x21 TIF> >0x0D TIF> >0x28 TIF> >0x0D TIF> >0x28 TIF> >0x0D TIF> >0x28 TIF> >0x0D TIF> >0x21 TIF> >0x0D TIF> >0x21 TIF> >0x0D TIF> >0x28 TIF> >0x0D TIF> >0x21 TIF> >0x0D TIF> >0x21 TIF>Found Cortex-M0 r0p0, Little endian.
 -- CPU_WriteMem(4 bytes @ 0xE0002000) -- CPU_ReadMem(4 bytes @ 0xE000EDF0) -- CPU_ReadMem(4 bytes @ 0xE0002000)FPUnit: 4 code (BP) slots and 0 literal slots -- CPU_ReadMem(4 bytes @ 0xE000EDFC) -- CPU_ReadMem(4 bytes @ 0xE0001000) -- CPU_WriteMem(4 bytes @ 0xE0001000) -- CPU_ReadMem(4 bytes @ 0xE00FF018) -- CPU_WriteMem(8192 bytes @ 0x20000000) >0x0D TIF> >0x21 TIF>  returns 0x0BB11477 (0112ms, 0643ms total)
T2B674 000:804 JLINK_GetDeviceFamily()  returns 6 (0000ms, 0643ms total)
T2B674 000:804 JLINK_ReadMem (0xE00FFFF0, 0x0010 Bytes, ...) -- CPU_ReadMem(16 bytes @ 0xE00FFFF0) -- Data:  0D 00 00 00 10 00 00 00 05 00 00 00 B1 00 00 00  returns 0x00 (0001ms, 0644ms total)
T2B674 000:805 JLINK_ReadMem (0xE00FFFD0, 0x0020 Bytes, ...) -- CPU_ReadMem(32 bytes @ 0xE00FFFD0) -- Data:  00 00 00 00 00 00 00 00 00 00 00 00 00 00 00 00 ...  returns 0x00 (0001ms, 0645ms total)
T2B674 000:806 JLINK_ReadMem (0xE00FF000, 0x0018 Bytes, ...) -- CPU_ReadMem(24 bytes @ 0xE00FF000) -- Data:  03 F0 F0 FF 03 20 F0 FF 03 30 F0 FF 00 00 00 00 ...  returns 0x00 (0001ms, 0646ms total)
T2B674 000:807 JLINK_ReadMemU32(0xE000ED00, 0x0001 Items, ...) -- CPU_ReadMem(4 bytes @ 0xE000ED00) -- Data:  00 C2 0C 41  returns 0x01 (0001ms, 0647ms total)
T2B674 000:808 JLINK_SetResetType(JLINKARM_RESET_TYPE_NORMAL)  returns JLINKARM_RESET_TYPE_NORMAL (0000ms, 0647ms total)
T2B674 000:808 JLINK_Reset() -- CPU_ReadMem(4 bytes @ 0x20000000) -- CPU_WriteMem(4 bytes @ 0x20000000) -- CPU_WriteMem(4 bytes @ 0xE000EDF0) -- CPU_WriteMem(4 bytes @ 0xE000EDFC) >0x35 TIF> -- CPU_WriteMem(4 bytes @ 0xE000ED0C) -- CPU_ReadMem(4 bytes @ 0xE000EDF0) -- CPU_ReadMem(4 bytes @ 0xE000EDF0) -- CPU_WriteMem(4 bytes @ 0xE000EDF0) -- CPU_WriteMem(4 bytes @ 0xE000EDFC) -- CPU is running -- CPU_ReadMem(4 bytes @ 0xE000EDF0) -- CPU_WriteMem(4 bytes @ 0xE0002000) -- CPU_ReadMem(4 bytes @ 0xE000EDFC)
 -- CPU_ReadMem(4 bytes @ 0xE0001000) -- CPU_WriteMem(4 bytes @ 0xE0001000) (0021ms, 0668ms total)
T2B674 000:829 JLINK_ReadReg(R15 (PC))  returns 0x080000D4 (0000ms, 0668ms total)
T2B674 000:829 JLINK_ReadReg(XPSR)  returns 0xC1000000 (0000ms, 0668ms total)
T2B674 000:829 JLINK_Halt()  returns 0x00 (0000ms, 0668ms total)
T2B674 000:829 JLINK_IsHalted()  returns TRUE (0000ms, 0668ms total)
T2B674 000:829 JLINK_ReadMemU32(0xE000EDF0, 0x0001 Items, ...) -- CPU_ReadMem(4 bytes @ 0xE000EDF0) -- Data:  03 00 03 00  returns 0x01 (0001ms, 0669ms total)
T2B674 000:830 JLINK_WriteU32(0xE000EDF0, 0xA05F0003) -- CPU_WriteMem(4 bytes @ 0xE000EDF0)  returns 0x00 (0000ms, 0669ms total)
T2B674 000:830 JLINK_WriteU32(0xE000EDFC, 0x01000000) -- CPU_WriteMem(4 bytes @ 0xE000EDFC)  returns 0x00 (0001ms, 0670ms total)
T2B674 000:831 JLINK_GetHWStatus(...)  returns 0x00 (0000ms, 0670ms total)
T2B674 000:831 JLINK_GetNumBPUnits(Type = 0xFFFFFF00)  returns 0x04 (0000ms, 0670ms total)
T2B674 000:831 JLINK_GetNumBPUnits(Type = 0xF0)  returns 0x2000 (0000ms, 0670ms total)
T2B674 000:831 JLINK_GetNumWPUnits()  returns 0x02 (0000ms, 0670ms total)
T2B674 000:831 JLINK_GetSpeed()  returns 0x7D0 (0000ms, 0670ms total)
T2B674 000:832 JLINK_ReadMemU32(0xE000E004, 0x0001 Items, ...) -- CPU_ReadMem(4 bytes @ 0xE000E004) -- Data:  00 00 00 00  returns 0x01 (0000ms, 0670ms total)
T2B674 000:832 JLINK_ReadReg(R15 (PC))  returns 0x080000D4 (0000ms, 0670ms total)
T2B674 000:832 JLINK_ReadReg(XPSR)  returns 0xC1000000 (0000ms, 0670ms total)
T2B674 000:840 JLINK_ReadMem (0x08000000, 0x0974 Bytes, ...) -- CPU_ReadMem(2432 bytes @ 0x08000000) -- Updating C cache (2432 bytes @ 0x08000000) -- Read from C cache (2420 bytes @ 0x08000000) -- Data:  80 04 00 20 D5 00 00 08 D5 01 00 08 D1 01 00 08 ...  returns 0x00 (0024ms, 0694ms total)
T2B674 000:917 JLINK_SetResetType(JLINKARM_RESET_TYPE_NORMAL)  returns JLINKARM_RESET_TYPE_NORMAL (0000ms, 0694ms total)
T2B674 000:917 JLINK_Reset() -- CPU_WriteMem(4 bytes @ 0xE000EDF0) -- CPU_WriteMem(4 bytes @ 0xE000EDFC) >0x35 TIF> -- CPU_WriteMem(4 bytes @ 0xE000ED0C) -- CPU_ReadMem(4 bytes @ 0xE000EDF0) -- CPU_ReadMem(4 bytes @ 0xE000EDF0) -- CPU_WriteMem(4 bytes @ 0xE000EDF0) -- CPU_WriteMem(4 bytes @ 0xE000EDFC) -- CPU is running -- CPU_ReadMem(4 bytes @ 0xE000EDF0) -- CPU_WriteMem(4 bytes @ 0xE0002000) -- CPU_ReadMem(4 bytes @ 0xE000EDFC) -- CPU_ReadMem(4 bytes @ 0xE0001000) -- CPU_WriteMem(4 bytes @ 0xE0001000)
 (0022ms, 0716ms total)
T2B674 000:939 JLINK_ReadReg(R15 (PC))  returns 0x080000D4 (0000ms, 0716ms total)
T2B674 000:939 JLINK_ReadReg(XPSR)  returns 0xC1000000 (0000ms, 0716ms total)
T2B674 000:939 JLINK_ReadMem (0x080000C0, 0x003C Bytes, ...) -- CPU_ReadMem(64 bytes @ 0x080000C0) -- Updating C cache (64 bytes @ 0x080000C0) -- Read from C cache (60 bytes @ 0x080000C0) -- Data:  03 48 85 46 00 F0 2A F8 00 48 00 47 79 08 00 08 ...  returns 0x00 (0002ms, 0718ms total)
T2B674 001:023 JLINK_ReadMem (0x48000000, 0x0028 Bytes, ...) -- CPU_ReadMem(40 bytes @ 0x48000000) -- Data:  00 00 00 28 00 00 00 28 00 00 00 28 00 00 00 28 ...  returns 0x00 (0001ms, 0719ms total)
T2B674 001:024 JLINK_ReadMem (0x48000028, 0x0004 Bytes, ...) -- CPU_ReadMem(4 bytes @ 0x48000028) -- Data:  00 00 00 28  returns 0x00 (0001ms, 0720ms total)
T2B674 001:025 JLINK_ReadMem (0x48000000, 0x0004 Bytes, ...) -- CPU_ReadMem(4 bytes @ 0x48000000) -- Data:  00 00 00 28  returns 0x00 (0000ms, 0720ms total)
T2B674 001:025 JLINK_ReadMem (0x48000000, 0x0004 Bytes, ...) -- CPU_ReadMem(4 bytes @ 0x48000000) -- Data:  00 00 00 28  returns 0x00 (0001ms, 0721ms total)
T2B674 001:026 JLINK_ReadMem (0x48000000, 0x0004 Bytes, ...) -- CPU_ReadMem(4 bytes @ 0x48000000) -- Data:  00 00 00 28  returns 0x00 (0001ms, 0722ms total)
T2B674 001:027 JLINK_ReadMem (0x48000000, 0x0004 Bytes, ...) -- CPU_ReadMem(4 bytes @ 0x48000000) -- Data:  00 00 00 28  returns 0x00 (0000ms, 0722ms total)
T2B674 001:027 JLINK_ReadMem (0x48000000, 0x0004 Bytes, ...) -- CPU_ReadMem(4 bytes @ 0x48000000) -- Data:  00 00 00 28  returns 0x00 (0001ms, 0723ms total)
T2B674 001:028 JLINK_ReadMem (0x48000000, 0x0004 Bytes, ...) -- CPU_ReadMem(4 bytes @ 0x48000000) -- Data:  00 00 00 28  returns 0x00 (0000ms, 0723ms total)
T2B674 001:028 JLINK_ReadMem (0x48000000, 0x0004 Bytes, ...) -- CPU_ReadMem(4 bytes @ 0x48000000) -- Data:  00 00 00 28  returns 0x00 (0001ms, 0724ms total)
T2B674 001:029 JLINK_ReadMem (0x48000000, 0x0004 Bytes, ...) -- CPU_ReadMem(4 bytes @ 0x48000000) -- Data:  00 00 00 28  returns 0x00 (0000ms, 0724ms total)
T2B674 001:029 JLINK_ReadMem (0x48000000, 0x0004 Bytes, ...) -- CPU_ReadMem(4 bytes @ 0x48000000) -- Data:  00 00 00 28  returns 0x00 (0001ms, 0725ms total)
T2B674 001:030 JLINK_ReadMem (0x48000000, 0x0004 Bytes, ...) -- CPU_ReadMem(4 bytes @ 0x48000000) -- Data:  00 00 00 28  returns 0x00 (0000ms, 0725ms total)
T2B674 001:030 JLINK_ReadMem (0x48000000, 0x0004 Bytes, ...) -- CPU_ReadMem(4 bytes @ 0x48000000) -- Data:  00 00 00 28  returns 0x00 (0001ms, 0726ms total)
T2B674 001:031 JLINK_ReadMem (0x48000000, 0x0004 Bytes, ...) -- CPU_ReadMem(4 bytes @ 0x48000000) -- Data:  00 00 00 28  returns 0x00 (0000ms, 0726ms total)
T2B674 001:031 JLINK_ReadMem (0x48000000, 0x0004 Bytes, ...) -- CPU_ReadMem(4 bytes @ 0x48000000) -- Data:  00 00 00 28  returns 0x00 (0001ms, 0727ms total)
T2B674 001:032 JLINK_ReadMem (0x48000000, 0x0004 Bytes, ...) -- CPU_ReadMem(4 bytes @ 0x48000000) -- Data:  00 00 00 28  returns 0x00 (0000ms, 0727ms total)
T2B674 001:032 JLINK_ReadMem (0x48000000, 0x0004 Bytes, ...) -- CPU_ReadMem(4 bytes @ 0x48000000) -- Data:  00 00 00 28  returns 0x00 (0001ms, 0728ms total)
T2B674 001:033 JLINK_ReadMem (0x48000000, 0x0004 Bytes, ...) -- CPU_ReadMem(4 bytes @ 0x48000000) -- Data:  00 00 00 28  returns 0x00 (0000ms, 0728ms total)
T2B674 001:033 JLINK_ReadMem (0x48000000, 0x0004 Bytes, ...) -- CPU_ReadMem(4 bytes @ 0x48000000) -- Data:  00 00 00 28  returns 0x00 (0001ms, 0729ms total)
T2B674 001:034 JLINK_ReadMem (0x48000004, 0x0004 Bytes, ...) -- CPU_ReadMem(4 bytes @ 0x48000004) -- Data:  00 00 00 28  returns 0x00 (0000ms, 0729ms total)
T2B674 001:034 JLINK_ReadMem (0x48000004, 0x0004 Bytes, ...) -- CPU_ReadMem(4 bytes @ 0x48000004) -- Data:  00 00 00 28  returns 0x00 (0001ms, 0730ms total)
T2B674 001:035 JLINK_ReadMem (0x48000004, 0x0004 Bytes, ...) -- CPU_ReadMem(4 bytes @ 0x48000004) -- Data:  00 00 00 28  returns 0x00 (0000ms, 0730ms total)
T2B674 001:035 JLINK_ReadMem (0x48000004, 0x0004 Bytes, ...) -- CPU_ReadMem(4 bytes @ 0x48000004) -- Data:  00 00 00 28  returns 0x00 (0001ms, 0731ms total)
T2B674 001:036 JLINK_ReadMem (0x48000004, 0x0004 Bytes, ...) -- CPU_ReadMem(4 bytes @ 0x48000004) -- Data:  00 00 00 28  returns 0x00 (0001ms, 0732ms total)
T2B674 001:037 JLINK_ReadMem (0x48000004, 0x0004 Bytes, ...) -- CPU_ReadMem(4 bytes @ 0x48000004) -- Data:  00 00 00 28  returns 0x00 (0000ms, 0732ms total)
T2B674 001:037 JLINK_ReadMem (0x48000004, 0x0004 Bytes, ...) -- CPU_ReadMem(4 bytes @ 0x48000004) -- Data:  00 00 00 28  returns 0x00 (0001ms, 0733ms total)
T2B674 001:038 JLINK_ReadMem (0x48000004, 0x0004 Bytes, ...) -- CPU_ReadMem(4 bytes @ 0x48000004) -- Data:  00 00 00 28  returns 0x00 (0000ms, 0733ms total)
T2B674 001:038 JLINK_ReadMem (0x48000004, 0x0004 Bytes, ...) -- CPU_ReadMem(4 bytes @ 0x48000004) -- Data:  00 00 00 28  returns 0x00 (0001ms, 0734ms total)
T2B674 001:039 JLINK_ReadMem (0x48000004, 0x0004 Bytes, ...) -- CPU_ReadMem(4 bytes @ 0x48000004) -- Data:  00 00 00 28  returns 0x00 (0000ms, 0734ms total)
T2B674 001:039 JLINK_ReadMem (0x48000004, 0x0004 Bytes, ...) -- CPU_ReadMem(4 bytes @ 0x48000004) -- Data:  00 00 00 28  returns 0x00 (0001ms, 0735ms total)
T2B674 001:040 JLINK_ReadMem (0x48000004, 0x0004 Bytes, ...) -- CPU_ReadMem(4 bytes @ 0x48000004) -- Data:  00 00 00 28  returns 0x00 (0000ms, 0735ms total)
T2B674 001:040 JLINK_ReadMem (0x48000004, 0x0004 Bytes, ...) -- CPU_ReadMem(4 bytes @ 0x48000004) -- Data:  00 00 00 28  returns 0x00 (0000ms, 0735ms total)
T2B674 001:041 JLINK_ReadMem (0x48000004, 0x0004 Bytes, ...) -- CPU_ReadMem(4 bytes @ 0x48000004) -- Data:  00 00 00 28  returns 0x00 (0000ms, 0735ms total)
T2B674 001:041 JLINK_ReadMem (0x48000004, 0x0004 Bytes, ...) -- CPU_ReadMem(4 bytes @ 0x48000004) -- Data:  00 00 00 28  returns 0x00 (0000ms, 0735ms total)
T2B674 001:041 JLINK_ReadMem (0x48000004, 0x0004 Bytes, ...) -- CPU_ReadMem(4 bytes @ 0x48000004) -- Data:  00 00 00 28  returns 0x00 (0001ms, 0736ms total)
T2B674 001:042 JLINK_ReadMem (0x48000004, 0x0004 Bytes, ...) -- CPU_ReadMem(4 bytes @ 0x48000004) -- Data:  00 00 00 28  returns 0x00 (0000ms, 0736ms total)
T2B674 001:042 JLINK_ReadMem (0x48000008, 0x0004 Bytes, ...) -- CPU_ReadMem(4 bytes @ 0x48000008) -- Data:  00 00 00 28  returns 0x00 (0001ms, 0737ms total)
T2B674 001:043 JLINK_ReadMem (0x48000008, 0x0004 Bytes, ...) -- CPU_ReadMem(4 bytes @ 0x48000008) -- Data:  00 00 00 28  returns 0x00 (0000ms, 0737ms total)
T2B674 001:043 JLINK_ReadMem (0x48000008, 0x0004 Bytes, ...) -- CPU_ReadMem(4 bytes @ 0x48000008) -- Data:  00 00 00 28  returns 0x00 (0001ms, 0738ms total)
T2B674 001:044 JLINK_ReadMem (0x48000008, 0x0004 Bytes, ...) -- CPU_ReadMem(4 bytes @ 0x48000008) -- Data:  00 00 00 28  returns 0x00 (0000ms, 0738ms total)
T2B674 001:044 JLINK_ReadMem (0x48000008, 0x0004 Bytes, ...) -- CPU_ReadMem(4 bytes @ 0x48000008) -- Data:  00 00 00 28  returns 0x00 (0001ms, 0739ms total)
T2B674 001:045 JLINK_ReadMem (0x48000008, 0x0004 Bytes, ...) -- CPU_ReadMem(4 bytes @ 0x48000008) -- Data:  00 00 00 28  returns 0x00 (0000ms, 0739ms total)
T2B674 001:045 JLINK_ReadMem (0x48000008, 0x0004 Bytes, ...) -- CPU_ReadMem(4 bytes @ 0x48000008) -- Data:  00 00 00 28  returns 0x00 (0001ms, 0740ms total)
T2B674 001:046 JLINK_ReadMem (0x48000008, 0x0004 Bytes, ...) -- CPU_ReadMem(4 bytes @ 0x48000008) -- Data:  00 00 00 28  returns 0x00 (0000ms, 0740ms total)
T2B674 001:046 JLINK_ReadMem (0x48000008, 0x0004 Bytes, ...) -- CPU_ReadMem(4 bytes @ 0x48000008) -- Data:  00 00 00 28  returns 0x00 (0001ms, 0741ms total)
T2B674 001:047 JLINK_ReadMem (0x48000008, 0x0004 Bytes, ...) -- CPU_ReadMem(4 bytes @ 0x48000008) -- Data:  00 00 00 28  returns 0x00 (0001ms, 0742ms total)
T2B674 001:048 JLINK_ReadMem (0x48000008, 0x0004 Bytes, ...) -- CPU_ReadMem(4 bytes @ 0x48000008) -- Data:  00 00 00 28  returns 0x00 (0000ms, 0742ms total)
T2B674 001:048 JLINK_ReadMem (0x48000008, 0x0004 Bytes, ...) -- CPU_ReadMem(4 bytes @ 0x48000008) -- Data:  00 00 00 28  returns 0x00 (0001ms, 0743ms total)
T2B674 001:049 JLINK_ReadMem (0x48000008, 0x0004 Bytes, ...) -- CPU_ReadMem(4 bytes @ 0x48000008) -- Data:  00 00 00 28  returns 0x00 (0000ms, 0743ms total)
T2B674 001:049 JLINK_ReadMem (0x48000008, 0x0004 Bytes, ...) -- CPU_ReadMem(4 bytes @ 0x48000008) -- Data:  00 00 00 28  returns 0x00 (0001ms, 0744ms total)
T2B674 001:050 JLINK_ReadMem (0x48000008, 0x0004 Bytes, ...) -- CPU_ReadMem(4 bytes @ 0x48000008) -- Data:  00 00 00 28  returns 0x00 (0000ms, 0744ms total)
T2B674 001:050 JLINK_ReadMem (0x48000008, 0x0004 Bytes, ...) -- CPU_ReadMem(4 bytes @ 0x48000008) -- Data:  00 00 00 28  returns 0x00 (0001ms, 0745ms total)
T2B674 001:051 JLINK_ReadMem (0x48000008, 0x0004 Bytes, ...) -- CPU_ReadMem(4 bytes @ 0x48000008) -- Data:  00 00 00 28  returns 0x00 (0000ms, 0745ms total)
T2B674 001:051 JLINK_ReadMem (0x4800000C, 0x0004 Bytes, ...) -- CPU_ReadMem(4 bytes @ 0x4800000C) -- Data:  00 00 00 28  returns 0x00 (0000ms, 0745ms total)
T2B674 001:051 JLINK_ReadMem (0x4800000C, 0x0004 Bytes, ...) -- CPU_ReadMem(4 bytes @ 0x4800000C) -- Data:  00 00 00 28  returns 0x00 (0001ms, 0746ms total)
T2B674 001:052 JLINK_ReadMem (0x4800000C, 0x0004 Bytes, ...) -- CPU_ReadMem(4 bytes @ 0x4800000C) -- Data:  00 00 00 28  returns 0x00 (0001ms, 0747ms total)
T2B674 001:053 JLINK_ReadMem (0x4800000C, 0x0004 Bytes, ...) -- CPU_ReadMem(4 bytes @ 0x4800000C) -- Data:  00 00 00 28  returns 0x00 (0000ms, 0747ms total)
T2B674 001:053 JLINK_ReadMem (0x4800000C, 0x0004 Bytes, ...) -- CPU_ReadMem(4 bytes @ 0x4800000C) -- Data:  00 00 00 28  returns 0x00 (0000ms, 0747ms total)
T2B674 001:053 JLINK_ReadMem (0x4800000C, 0x0004 Bytes, ...) -- CPU_ReadMem(4 bytes @ 0x4800000C) -- Data:  00 00 00 28  returns 0x00 (0001ms, 0748ms total)
T2B674 001:054 JLINK_ReadMem (0x4800000C, 0x0004 Bytes, ...) -- CPU_ReadMem(4 bytes @ 0x4800000C) -- Data:  00 00 00 28  returns 0x00 (0000ms, 0748ms total)
T2B674 001:054 JLINK_ReadMem (0x4800000C, 0x0004 Bytes, ...) -- CPU_ReadMem(4 bytes @ 0x4800000C) -- Data:  00 00 00 28  returns 0x00 (0001ms, 0749ms total)
T2B674 001:055 JLINK_ReadMem (0x4800000C, 0x0004 Bytes, ...) -- CPU_ReadMem(4 bytes @ 0x4800000C) -- Data:  00 00 00 28  returns 0x00 (0000ms, 0749ms total)
T2B674 001:055 JLINK_ReadMem (0x4800000C, 0x0004 Bytes, ...) -- CPU_ReadMem(4 bytes @ 0x4800000C) -- Data:  00 00 00 28  returns 0x00 (0001ms, 0750ms total)
T2B674 001:056 JLINK_ReadMem (0x4800000C, 0x0004 Bytes, ...) -- CPU_ReadMem(4 bytes @ 0x4800000C) -- Data:  00 00 00 28  returns 0x00 (0000ms, 0750ms total)
T2B674 001:056 JLINK_ReadMem (0x4800000C, 0x0004 Bytes, ...) -- CPU_ReadMem(4 bytes @ 0x4800000C) -- Data:  00 00 00 28  returns 0x00 (0001ms, 0751ms total)
T2B674 001:057 JLINK_ReadMem (0x4800000C, 0x0004 Bytes, ...) -- CPU_ReadMem(4 bytes @ 0x4800000C) -- Data:  00 00 00 28  returns 0x00 (0001ms, 0752ms total)
T2B674 001:058 JLINK_ReadMem (0x4800000C, 0x0004 Bytes, ...) -- CPU_ReadMem(4 bytes @ 0x4800000C) -- Data:  00 00 00 28  returns 0x00 (0001ms, 0753ms total)
T2B674 001:059 JLINK_ReadMem (0x4800000C, 0x0004 Bytes, ...) -- CPU_ReadMem(4 bytes @ 0x4800000C) -- Data:  00 00 00 28  returns 0x00 (0000ms, 0753ms total)
T2B674 001:059 JLINK_ReadMem (0x4800000C, 0x0004 Bytes, ...) -- CPU_ReadMem(4 bytes @ 0x4800000C) -- Data:  00 00 00 28  returns 0x00 (0001ms, 0754ms total)
T2B674 001:060 JLINK_ReadMem (0x4800000C, 0x0004 Bytes, ...) -- CPU_ReadMem(4 bytes @ 0x4800000C) -- Data:  00 00 00 28  returns 0x00 (0000ms, 0754ms total)
T2B674 001:060 JLINK_ReadMem (0x48000010, 0x0004 Bytes, ...) -- CPU_ReadMem(4 bytes @ 0x48000010) -- Data:  00 00 00 28  returns 0x00 (0001ms, 0755ms total)
T2B674 001:061 JLINK_ReadMem (0x48000010, 0x0004 Bytes, ...) -- CPU_ReadMem(4 bytes @ 0x48000010) -- Data:  00 00 00 28  returns 0x00 (0000ms, 0755ms total)
T2B674 001:061 JLINK_ReadMem (0x48000010, 0x0004 Bytes, ...) -- CPU_ReadMem(4 bytes @ 0x48000010) -- Data:  00 00 00 28  returns 0x00 (0001ms, 0756ms total)
T2B674 001:062 JLINK_ReadMem (0x48000010, 0x0004 Bytes, ...) -- CPU_ReadMem(4 bytes @ 0x48000010) -- Data:  00 00 00 28  returns 0x00 (0000ms, 0756ms total)
T2B674 001:062 JLINK_ReadMem (0x48000010, 0x0004 Bytes, ...) -- CPU_ReadMem(4 bytes @ 0x48000010) -- Data:  00 00 00 28  returns 0x00 (0001ms, 0757ms total)
T2B674 001:063 JLINK_ReadMem (0x48000010, 0x0004 Bytes, ...) -- CPU_ReadMem(4 bytes @ 0x48000010) -- Data:  00 00 00 28  returns 0x00 (0000ms, 0757ms total)
T2B674 001:063 JLINK_ReadMem (0x48000010, 0x0004 Bytes, ...) -- CPU_ReadMem(4 bytes @ 0x48000010) -- Data:  00 00 00 28  returns 0x00 (0001ms, 0758ms total)
T2B674 001:064 JLINK_ReadMem (0x48000010, 0x0004 Bytes, ...) -- CPU_ReadMem(4 bytes @ 0x48000010) -- Data:  00 00 00 28  returns 0x00 (0000ms, 0758ms total)
T2B674 001:064 JLINK_ReadMem (0x48000010, 0x0004 Bytes, ...) -- CPU_ReadMem(4 bytes @ 0x48000010) -- Data:  00 00 00 28  returns 0x00 (0001ms, 0759ms total)
T2B674 001:065 JLINK_ReadMem (0x48000010, 0x0004 Bytes, ...) -- CPU_ReadMem(4 bytes @ 0x48000010) -- Data:  00 00 00 28  returns 0x00 (0000ms, 0759ms total)
T2B674 001:065 JLINK_ReadMem (0x48000010, 0x0004 Bytes, ...) -- CPU_ReadMem(4 bytes @ 0x48000010) -- Data:  00 00 00 28  returns 0x00 (0001ms, 0760ms total)
T2B674 001:066 JLINK_ReadMem (0x48000010, 0x0004 Bytes, ...) -- CPU_ReadMem(4 bytes @ 0x48000010) -- Data:  00 00 00 28  returns 0x00 (0000ms, 0760ms total)
T2B674 001:066 JLINK_ReadMem (0x48000010, 0x0004 Bytes, ...) -- CPU_ReadMem(4 bytes @ 0x48000010) -- Data:  00 00 00 28  returns 0x00 (0000ms, 0760ms total)
T2B674 001:066 JLINK_ReadMem (0x48000010, 0x0004 Bytes, ...) -- CPU_ReadMem(4 bytes @ 0x48000010) -- Data:  00 00 00 28  returns 0x00 (0001ms, 0761ms total)
T2B674 001:067 JLINK_ReadMem (0x48000010, 0x0004 Bytes, ...) -- CPU_ReadMem(4 bytes @ 0x48000010) -- Data:  00 00 00 28  returns 0x00 (0000ms, 0761ms total)
T2B674 001:067 JLINK_ReadMem (0x48000010, 0x0004 Bytes, ...) -- CPU_ReadMem(4 bytes @ 0x48000010) -- Data:  00 00 00 28  returns 0x00 (0001ms, 0762ms total)
T2B674 001:068 JLINK_ReadMem (0x48000010, 0x0004 Bytes, ...) -- CPU_ReadMem(4 bytes @ 0x48000010) -- Data:  00 00 00 28  returns 0x00 (0000ms, 0762ms total)
T2B674 001:068 JLINK_ReadMem (0x48000014, 0x0004 Bytes, ...) -- CPU_ReadMem(4 bytes @ 0x48000014) -- Data:  00 00 00 28  returns 0x00 (0001ms, 0763ms total)
T2B674 001:069 JLINK_ReadMem (0x48000014, 0x0004 Bytes, ...) -- CPU_ReadMem(4 bytes @ 0x48000014) -- Data:  00 00 00 28  returns 0x00 (0000ms, 0763ms total)
T2B674 001:069 JLINK_ReadMem (0x48000014, 0x0004 Bytes, ...) -- CPU_ReadMem(4 bytes @ 0x48000014) -- Data:  00 00 00 28  returns 0x00 (0001ms, 0764ms total)
T2B674 001:070 JLINK_ReadMem (0x48000014, 0x0004 Bytes, ...) -- CPU_ReadMem(4 bytes @ 0x48000014) -- Data:  00 00 00 28  returns 0x00 (0000ms, 0764ms total)
T2B674 001:070 JLINK_ReadMem (0x48000014, 0x0004 Bytes, ...) -- CPU_ReadMem(4 bytes @ 0x48000014) -- Data:  00 00 00 28  returns 0x00 (0001ms, 0765ms total)
T2B674 001:071 JLINK_ReadMem (0x48000014, 0x0004 Bytes, ...) -- CPU_ReadMem(4 bytes @ 0x48000014) -- Data:  00 00 00 28  returns 0x00 (0000ms, 0765ms total)
T2B674 001:071 JLINK_ReadMem (0x48000014, 0x0004 Bytes, ...) -- CPU_ReadMem(4 bytes @ 0x48000014) -- Data:  00 00 00 28  returns 0x00 (0001ms, 0766ms total)
T2B674 001:072 JLINK_ReadMem (0x48000014, 0x0004 Bytes, ...) -- CPU_ReadMem(4 bytes @ 0x48000014) -- Data:  00 00 00 28  returns 0x00 (0001ms, 0767ms total)
T2B674 001:073 JLINK_ReadMem (0x48000014, 0x0004 Bytes, ...) -- CPU_ReadMem(4 bytes @ 0x48000014) -- Data:  00 00 00 28  returns 0x00 (0000ms, 0767ms total)
T2B674 001:073 JLINK_ReadMem (0x48000014, 0x0004 Bytes, ...) -- CPU_ReadMem(4 bytes @ 0x48000014) -- Data:  00 00 00 28  returns 0x00 (0001ms, 0768ms total)
T2B674 001:074 JLINK_ReadMem (0x48000014, 0x0004 Bytes, ...) -- CPU_ReadMem(4 bytes @ 0x48000014) -- Data:  00 00 00 28  returns 0x00 (0000ms, 0768ms total)
T2B674 001:074 JLINK_ReadMem (0x48000014, 0x0004 Bytes, ...) -- CPU_ReadMem(4 bytes @ 0x48000014) -- Data:  00 00 00 28  returns 0x00 (0001ms, 0769ms total)
T2B674 001:075 JLINK_ReadMem (0x48000014, 0x0004 Bytes, ...) -- CPU_ReadMem(4 bytes @ 0x48000014) -- Data:  00 00 00 28  returns 0x00 (0000ms, 0769ms total)
T2B674 001:075 JLINK_ReadMem (0x48000014, 0x0004 Bytes, ...) -- CPU_ReadMem(4 bytes @ 0x48000014) -- Data:  00 00 00 28  returns 0x00 (0001ms, 0770ms total)
T2B674 001:076 JLINK_ReadMem (0x48000014, 0x0004 Bytes, ...) -- CPU_ReadMem(4 bytes @ 0x48000014) -- Data:  00 00 00 28  returns 0x00 (0000ms, 0770ms total)
T2B674 001:076 JLINK_ReadMem (0x48000014, 0x0004 Bytes, ...) -- CPU_ReadMem(4 bytes @ 0x48000014) -- Data:  00 00 00 28  returns 0x00 (0001ms, 0771ms total)
T2B674 001:077 JLINK_ReadMem (0x48000014, 0x0004 Bytes, ...) -- CPU_ReadMem(4 bytes @ 0x48000014) -- Data:  00 00 00 28  returns 0x00 (0000ms, 0771ms total)
T2B674 001:077 JLINK_ReadMem (0x4800001C, 0x0004 Bytes, ...) -- CPU_ReadMem(4 bytes @ 0x4800001C) -- Data:  00 00 00 28  returns 0x00 (0001ms, 0772ms total)
T2B674 001:078 JLINK_ReadMem (0x4800001C, 0x0004 Bytes, ...) -- CPU_ReadMem(4 bytes @ 0x4800001C) -- Data:  00 00 00 28  returns 0x00 (0000ms, 0772ms total)
T2B674 001:078 JLINK_ReadMem (0x4800001C, 0x0004 Bytes, ...) -- CPU_ReadMem(4 bytes @ 0x4800001C) -- Data:  00 00 00 28  returns 0x00 (0001ms, 0773ms total)
T2B674 001:079 JLINK_ReadMem (0x4800001C, 0x0004 Bytes, ...) -- CPU_ReadMem(4 bytes @ 0x4800001C) -- Data:  00 00 00 28  returns 0x00 (0000ms, 0773ms total)
T2B674 001:079 JLINK_ReadMem (0x4800001C, 0x0004 Bytes, ...) -- CPU_ReadMem(4 bytes @ 0x4800001C) -- Data:  00 00 00 28  returns 0x00 (0001ms, 0774ms total)
T2B674 001:080 JLINK_ReadMem (0x4800001C, 0x0004 Bytes, ...) -- CPU_ReadMem(4 bytes @ 0x4800001C) -- Data:  00 00 00 28  returns 0x00 (0000ms, 0774ms total)
T2B674 001:080 JLINK_ReadMem (0x4800001C, 0x0004 Bytes, ...) -- CPU_ReadMem(4 bytes @ 0x4800001C) -- Data:  00 00 00 28  returns 0x00 (0001ms, 0775ms total)
T2B674 001:081 JLINK_ReadMem (0x4800001C, 0x0004 Bytes, ...) -- CPU_ReadMem(4 bytes @ 0x4800001C) -- Data:  00 00 00 28  returns 0x00 (0000ms, 0775ms total)
T2B674 001:081 JLINK_ReadMem (0x4800001C, 0x0004 Bytes, ...) -- CPU_ReadMem(4 bytes @ 0x4800001C) -- Data:  00 00 00 28  returns 0x00 (0001ms, 0776ms total)
T2B674 001:082 JLINK_ReadMem (0x4800001C, 0x0004 Bytes, ...) -- CPU_ReadMem(4 bytes @ 0x4800001C) -- Data:  00 00 00 28  returns 0x00 (0000ms, 0776ms total)
T2B674 001:082 JLINK_ReadMem (0x4800001C, 0x0004 Bytes, ...) -- CPU_ReadMem(4 bytes @ 0x4800001C) -- Data:  00 00 00 28  returns 0x00 (0001ms, 0777ms total)
T2B674 001:083 JLINK_ReadMem (0x4800001C, 0x0004 Bytes, ...) -- CPU_ReadMem(4 bytes @ 0x4800001C) -- Data:  00 00 00 28  returns 0x00 (0000ms, 0777ms total)
T2B674 001:083 JLINK_ReadMem (0x4800001C, 0x0004 Bytes, ...) -- CPU_ReadMem(4 bytes @ 0x4800001C) -- Data:  00 00 00 28  returns 0x00 (0000ms, 0777ms total)
T2B674 001:083 JLINK_ReadMem (0x4800001C, 0x0004 Bytes, ...) -- CPU_ReadMem(4 bytes @ 0x4800001C) -- Data:  00 00 00 28  returns 0x00 (0001ms, 0778ms total)
T2B674 001:084 JLINK_ReadMem (0x4800001C, 0x0004 Bytes, ...) -- CPU_ReadMem(4 bytes @ 0x4800001C) -- Data:  00 00 00 28  returns 0x00 (0000ms, 0778ms total)
T2B674 001:084 JLINK_ReadMem (0x4800001C, 0x0004 Bytes, ...) -- CPU_ReadMem(4 bytes @ 0x4800001C) -- Data:  00 00 00 28  returns 0x00 (0001ms, 0779ms total)
T2B674 001:085 JLINK_ReadMem (0x4800001C, 0x0004 Bytes, ...) -- CPU_ReadMem(4 bytes @ 0x4800001C) -- Data:  00 00 00 28  returns 0x00 (0000ms, 0779ms total)
T2B674 001:085 JLINK_ReadMem (0x4800001C, 0x0004 Bytes, ...) -- CPU_ReadMem(4 bytes @ 0x4800001C) -- Data:  00 00 00 28  returns 0x00 (0001ms, 0780ms total)
T2B674 001:086 JLINK_ReadMem (0x48000020, 0x0004 Bytes, ...) -- CPU_ReadMem(4 bytes @ 0x48000020) -- Data:  00 00 00 28  returns 0x00 (0000ms, 0780ms total)
T2B674 001:086 JLINK_ReadMem (0x48000020, 0x0004 Bytes, ...) -- CPU_ReadMem(4 bytes @ 0x48000020) -- Data:  00 00 00 28  returns 0x00 (0001ms, 0781ms total)
T2B674 001:087 JLINK_ReadMem (0x48000020, 0x0004 Bytes, ...) -- CPU_ReadMem(4 bytes @ 0x48000020) -- Data:  00 00 00 28  returns 0x00 (0000ms, 0781ms total)
T2B674 001:087 JLINK_ReadMem (0x48000020, 0x0004 Bytes, ...) -- CPU_ReadMem(4 bytes @ 0x48000020) -- Data:  00 00 00 28  returns 0x00 (0001ms, 0782ms total)
T2B674 001:088 JLINK_ReadMem (0x48000020, 0x0004 Bytes, ...) -- CPU_ReadMem(4 bytes @ 0x48000020) -- Data:  00 00 00 28  returns 0x00 (0000ms, 0782ms total)
T2B674 001:088 JLINK_ReadMem (0x48000020, 0x0004 Bytes, ...) -- CPU_ReadMem(4 bytes @ 0x48000020) -- Data:  00 00 00 28  returns 0x00 (0001ms, 0783ms total)
T2B674 001:089 JLINK_ReadMem (0x48000020, 0x0004 Bytes, ...) -- CPU_ReadMem(4 bytes @ 0x48000020) -- Data:  00 00 00 28  returns 0x00 (0000ms, 0783ms total)
T2B674 001:089 JLINK_ReadMem (0x48000020, 0x0004 Bytes, ...) -- CPU_ReadMem(4 bytes @ 0x48000020) -- Data:  00 00 00 28  returns 0x00 (0001ms, 0784ms total)
T2B674 001:090 JLINK_ReadMem (0x48000020, 0x0004 Bytes, ...) -- CPU_ReadMem(4 bytes @ 0x48000020) -- Data:  00 00 00 28  returns 0x00 (0000ms, 0784ms total)
T2B674 001:090 JLINK_ReadMem (0x48000024, 0x0004 Bytes, ...) -- CPU_ReadMem(4 bytes @ 0x48000024) -- Data:  00 00 00 28  returns 0x00 (0001ms, 0785ms total)
T2B674 001:091 JLINK_ReadMem (0x48000024, 0x0004 Bytes, ...) -- CPU_ReadMem(4 bytes @ 0x48000024) -- Data:  00 00 00 28  returns 0x00 (0000ms, 0785ms total)
T2B674 001:091 JLINK_ReadMem (0x48000024, 0x0004 Bytes, ...) -- CPU_ReadMem(4 bytes @ 0x48000024) -- Data:  00 00 00 28  returns 0x00 (0001ms, 0786ms total)
T2B674 001:092 JLINK_ReadMem (0x48000024, 0x0004 Bytes, ...) -- CPU_ReadMem(4 bytes @ 0x48000024) -- Data:  00 00 00 28  returns 0x00 (0000ms, 0786ms total)
T2B674 001:092 JLINK_ReadMem (0x48000024, 0x0004 Bytes, ...) -- CPU_ReadMem(4 bytes @ 0x48000024) -- Data:  00 00 00 28  returns 0x00 (0001ms, 0787ms total)
T2B674 001:093 JLINK_ReadMem (0x48000024, 0x0004 Bytes, ...) -- CPU_ReadMem(4 bytes @ 0x48000024) -- Data:  00 00 00 28  returns 0x00 (0000ms, 0787ms total)
T2B674 001:093 JLINK_ReadMem (0x48000024, 0x0004 Bytes, ...) -- CPU_ReadMem(4 bytes @ 0x48000024) -- Data:  00 00 00 28  returns 0x00 (0001ms, 0788ms total)
T2B674 001:094 JLINK_ReadMem (0x48000024, 0x0004 Bytes, ...) -- CPU_ReadMem(4 bytes @ 0x48000024) -- Data:  00 00 00 28  returns 0x00 (0000ms, 0788ms total)
T2B674 001:094 JLINK_ReadMem (0x48000024, 0x0004 Bytes, ...) -- CPU_ReadMem(4 bytes @ 0x48000024) -- Data:  00 00 00 28  returns 0x00 (0001ms, 0789ms total)
T2B674 001:120 JLINK_ReadMem (0x48000800, 0x0028 Bytes, ...) -- CPU_ReadMem(40 bytes @ 0x48000800) -- Data:  00 00 00 00 00 00 00 00 00 00 00 00 00 00 00 00 ...  returns 0x00 (0001ms, 0790ms total)
T2B674 001:121 JLINK_ReadMem (0x48000828, 0x0004 Bytes, ...) -- CPU_ReadMem(4 bytes @ 0x48000828) -- Data:  00 00 00 00  returns 0x00 (0000ms, 0790ms total)
T2B674 001:146 JLINK_ReadMem (0x40013800, 0x0028 Bytes, ...) -- CPU_ReadMem(40 bytes @ 0x40013800) -- Data:  00 00 00 00 00 00 00 00 00 00 00 00 00 00 00 00 ...  returns 0x00 (0001ms, 0791ms total)
T2B674 001:147 JLINK_ReadMem (0x40013828, 0x0004 Bytes, ...) -- CPU_ReadMem(4 bytes @ 0x40013828) -- Data:  00 00 00 00  returns 0x00 (0001ms, 0792ms total)
T2B674 001:148 JLINK_ReadMem (0x4001381C, 0x0004 Bytes, ...) -- CPU_ReadMem(4 bytes @ 0x4001381C) -- Data:  C0 00 00 00  returns 0x00 (0000ms, 0792ms total)
T2B674 001:148 JLINK_ReadMem (0x4001381C, 0x0004 Bytes, ...) -- CPU_ReadMem(4 bytes @ 0x4001381C) -- Data:  C0 00 00 00  returns 0x00 (0001ms, 0793ms total)
T2B674 001:149 JLINK_ReadMem (0x4001381C, 0x0004 Bytes, ...) -- CPU_ReadMem(4 bytes @ 0x4001381C) -- Data:  C0 00 00 00  returns 0x00 (0000ms, 0793ms total)
T2B674 001:149 JLINK_ReadMem (0x4001381C, 0x0004 Bytes, ...) -- CPU_ReadMem(4 bytes @ 0x4001381C) -- Data:  C0 00 00 00  returns 0x00 (0001ms, 0794ms total)
T2B674 001:150 JLINK_ReadMem (0x4001381C, 0x0004 Bytes, ...) -- CPU_ReadMem(4 bytes @ 0x4001381C) -- Data:  C0 00 00 00  returns 0x00 (0000ms, 0794ms total)
T2B674 001:150 JLINK_ReadMem (0x4001381C, 0x0004 Bytes, ...) -- CPU_ReadMem(4 bytes @ 0x4001381C) -- Data:  C0 00 00 00  returns 0x00 (0001ms, 0795ms total)
T2B674 001:151 JLINK_ReadMem (0x4001381C, 0x0004 Bytes, ...) -- CPU_ReadMem(4 bytes @ 0x4001381C) -- Data:  C0 00 00 00  returns 0x00 (0000ms, 0795ms total)
T2B674 001:151 JLINK_ReadMem (0x4001381C, 0x0004 Bytes, ...) -- CPU_ReadMem(4 bytes @ 0x4001381C) -- Data:  C0 00 00 00  returns 0x00 (0001ms, 0796ms total)
T2B674 001:152 JLINK_ReadMem (0x4001381C, 0x0004 Bytes, ...) -- CPU_ReadMem(4 bytes @ 0x4001381C) -- Data:  C0 00 00 00  returns 0x00 (0000ms, 0796ms total)
T2B674 001:152 JLINK_ReadMem (0x4001381C, 0x0004 Bytes, ...) -- CPU_ReadMem(4 bytes @ 0x4001381C) -- Data:  C0 00 00 00  returns 0x00 (0001ms, 0797ms total)
T2B674 001:153 JLINK_ReadMem (0x4001381C, 0x0004 Bytes, ...) -- CPU_ReadMem(4 bytes @ 0x4001381C) -- Data:  C0 00 00 00  returns 0x00 (0000ms, 0797ms total)
T2B674 001:153 JLINK_ReadMem (0x4001381C, 0x0004 Bytes, ...) -- CPU_ReadMem(4 bytes @ 0x4001381C) -- Data:  C0 00 00 00  returns 0x00 (0001ms, 0798ms total)
T2B674 001:154 JLINK_ReadMem (0x4001381C, 0x0004 Bytes, ...) -- CPU_ReadMem(4 bytes @ 0x4001381C) -- Data:  C0 00 00 00  returns 0x00 (0000ms, 0798ms total)
T2B674 001:154 JLINK_ReadMem (0x4001381C, 0x0004 Bytes, ...) -- CPU_ReadMem(4 bytes @ 0x4001381C) -- Data:  C0 00 00 00  returns 0x00 (0001ms, 0799ms total)
T2B674 001:155 JLINK_ReadMem (0x4001381C, 0x0004 Bytes, ...) -- CPU_ReadMem(4 bytes @ 0x4001381C) -- Data:  C0 00 00 00  returns 0x00 (0000ms, 0799ms total)
T2B674 001:155 JLINK_ReadMem (0x4001381C, 0x0004 Bytes, ...) -- CPU_ReadMem(4 bytes @ 0x4001381C) -- Data:  C0 00 00 00  returns 0x00 (0001ms, 0800ms total)
T2B674 001:156 JLINK_ReadMem (0x4001381C, 0x0004 Bytes, ...) -- CPU_ReadMem(4 bytes @ 0x4001381C) -- Data:  C0 00 00 00  returns 0x00 (0001ms, 0801ms total)
T2B674 001:157 JLINK_ReadMem (0x4001381C, 0x0004 Bytes, ...) -- CPU_ReadMem(4 bytes @ 0x4001381C) -- Data:  C0 00 00 00  returns 0x00 (0000ms, 0801ms total)
T2B674 001:157 JLINK_ReadMem (0x4001381C, 0x0004 Bytes, ...) -- CPU_ReadMem(4 bytes @ 0x4001381C) -- Data:  C0 00 00 00  returns 0x00 (0001ms, 0802ms total)
T2B674 001:158 JLINK_ReadMem (0x4001381C, 0x0004 Bytes, ...) -- CPU_ReadMem(4 bytes @ 0x4001381C) -- Data:  C0 00 00 00  returns 0x00 (0000ms, 0802ms total)
T2B674 001:158 JLINK_ReadMem (0x4001381C, 0x0004 Bytes, ...) -- CPU_ReadMem(4 bytes @ 0x4001381C) -- Data:  C0 00 00 00  returns 0x00 (0001ms, 0803ms total)
T2B674 001:159 JLINK_ReadMem (0x4001381C, 0x0004 Bytes, ...) -- CPU_ReadMem(4 bytes @ 0x4001381C) -- Data:  C0 00 00 00  returns 0x00 (0000ms, 0803ms total)
T2B674 001:159 JLINK_ReadMem (0x4001381C, 0x0004 Bytes, ...) -- CPU_ReadMem(4 bytes @ 0x4001381C) -- Data:  C0 00 00 00  returns 0x00 (0001ms, 0804ms total)
T2ECD0 002:126 JLINK_SetBPEx(Addr = 0x08000878, Type = 0xFFFFFFF2)  returns 0x00000001 (0000ms, 0804ms total)
T2ECD0 002:126 JLINK_SetBPEx(Addr = 0x0800089C, Type = 0xFFFFFFF2)  returns 0x00000002 (0000ms, 0804ms total)
T2ECD0 002:126 JLINK_Go() -- CPU_WriteMem(4 bytes @ 0xE0002000) -- CPU_WriteMem(4 bytes @ 0xE0002008) -- CPU_WriteMem(4 bytes @ 0xE0002000) -- CPU_WriteMem(4 bytes @ 0xE000200C) -- CPU_WriteMem(4 bytes @ 0xE0002010) -- CPU_WriteMem(4 bytes @ 0xE0002014) -- CPU_WriteMem(4 bytes @ 0xE0001004) (0005ms, 0809ms total)
T2ECD0 002:232 JLINK_IsHalted()  returns TRUE (0004ms, 0813ms total)
T2ECD0 002:236 JLINK_Halt()  returns 0x00 (0000ms, 0809ms total)
T2ECD0 002:236 JLINK_IsHalted()  returns TRUE (0000ms, 0809ms total)
T2ECD0 002:236 JLINK_IsHalted()  returns TRUE (0000ms, 0809ms total)
T2ECD0 002:236 JLINK_IsHalted()  returns TRUE (0000ms, 0809ms total)
T2ECD0 002:236 JLINK_ReadReg(R15 (PC))  returns 0x08000878 (0000ms, 0809ms total)
T2ECD0 002:236 JLINK_ReadReg(XPSR)  returns 0x61000000 (0000ms, 0809ms total)
T2ECD0 002:236 JLINK_ClrBPEx(BPHandle = 0x00000001)  returns 0x00 (0000ms, 0809ms total)
T2ECD0 002:236 JLINK_ClrBPEx(BPHandle = 0x00000002)  returns 0x00 (0000ms, 0809ms total)
T2ECD0 002:236 JLINK_ReadMemU32(0xE000ED30, 0x0001 Items, ...) -- CPU_ReadMem(4 bytes @ 0xE000ED30) -- Data:  02 00 00 00  returns 0x01 (0001ms, 0810ms total)
T2ECD0 002:237 JLINK_ReadMemU32(0xE0001028, 0x0001 Items, ...) -- CPU_ReadMem(4 bytes @ 0xE0001028) -- Data:  00 00 00 00  returns 0x01 (0000ms, 0810ms total)
T2ECD0 002:237 JLINK_ReadMemU32(0xE0001038, 0x0001 Items, ...) -- CPU_ReadMem(4 bytes @ 0xE0001038) -- Data:  00 00 00 00  returns 0x01 (0001ms, 0811ms total)
T2ECD0 002:238 JLINK_ReadReg(R0)  returns 0x08000879 (0000ms, 0811ms total)
T2ECD0 002:238 JLINK_ReadReg(R1)  returns 0x20000480 (0000ms, 0811ms total)
T2ECD0 002:238 JLINK_ReadReg(R2)  returns 0x00000000 (0000ms, 0811ms total)
T2ECD0 002:238 JLINK_ReadReg(R3)  returns 0x08000799 (0000ms, 0811ms total)
T2ECD0 002:238 JLINK_ReadReg(R4)  returns 0x080008F4 (0000ms, 0811ms total)
T2ECD0 002:238 JLINK_ReadReg(R5)  returns 0x00000001 (0000ms, 0811ms total)
T2ECD0 002:238 JLINK_ReadReg(R6)  returns 0x080008F4 (0000ms, 0811ms total)
T2ECD0 002:238 JLINK_ReadReg(R7)  returns 0xFFFFFFFF (0000ms, 0811ms total)
T2ECD0 002:238 JLINK_ReadReg(R8)  returns 0xFFFFFFFF (0000ms, 0811ms total)
T2ECD0 002:238 JLINK_ReadReg(R9)  returns 0xFFFFFFFF (0000ms, 0811ms total)
T2ECD0 002:238 JLINK_ReadReg(R10)  returns 0xFFFFFFFF (0000ms, 0811ms total)
T2ECD0 002:238 JLINK_ReadReg(R11)  returns 0xFFFFFFFF (0000ms, 0811ms total)
T2ECD0 002:238 JLINK_ReadReg(R12)  returns 0xFFFFFFFF (0000ms, 0811ms total)
T2ECD0 002:238 JLINK_ReadReg(R13 (SP))  returns 0x20000480 (0000ms, 0811ms total)
T2ECD0 002:238 JLINK_ReadReg(R14)  returns 0x08000139 (0000ms, 0811ms total)
T2ECD0 002:238 JLINK_ReadReg(R15 (PC))  returns 0x08000878 (0000ms, 0811ms total)
T2ECD0 002:238 JLINK_ReadReg(XPSR)  returns 0x61000000 (0000ms, 0811ms total)
T2ECD0 002:238 JLINK_ReadReg(MSP)  returns 0x20000480 (0000ms, 0811ms total)
T2ECD0 002:238 JLINK_ReadReg(PSP)  returns 0xFFFFFFFC (0000ms, 0811ms total)
T2ECD0 002:238 JLINK_ReadReg(CFBP)  returns 0x00000000 (0000ms, 0811ms total)
T2B674 002:241 JLINK_ReadMem (0x48000000, 0x0028 Bytes, ...) -- CPU_ReadMem(40 bytes @ 0x48000000) -- Data:  00 00 00 28 00 00 00 28 00 00 00 28 00 00 00 28 ...  returns 0x00 (0000ms, 0811ms total)
T2B674 002:241 JLINK_ReadMem (0x48000028, 0x0004 Bytes, ...) -- CPU_ReadMem(4 bytes @ 0x48000028) -- Data:  00 00 00 28  returns 0x00 (0001ms, 0812ms total)
T2B674 002:242 JLINK_ReadMem (0x40013800, 0x0028 Bytes, ...) -- CPU_ReadMem(40 bytes @ 0x40013800) -- Data:  00 00 00 00 00 00 00 00 00 00 00 00 00 00 00 00 ...  returns 0x00 (0001ms, 0813ms total)
T2B674 002:243 JLINK_ReadMem (0x40013828, 0x0004 Bytes, ...) -- CPU_ReadMem(4 bytes @ 0x40013828) -- Data:  00 00 00 00  returns 0x00 (0001ms, 0814ms total)
T2B674 002:244 JLINK_ReadMem (0x48000800, 0x0028 Bytes, ...) -- CPU_ReadMem(40 bytes @ 0x48000800) -- Data:  00 00 00 00 00 00 00 00 00 00 00 00 00 00 00 00 ...  returns 0x00 (0001ms, 0815ms total)
T2B674 002:245 JLINK_ReadMem (0x48000828, 0x0004 Bytes, ...) -- CPU_ReadMem(4 bytes @ 0x48000828) -- Data:  00 00 00 00  returns 0x00 (0000ms, 0815ms total)
T2B674 002:248 JLINK_ReadMem (0x08000778, 0x003C Bytes, ...) -- CPU_ReadMem(128 bytes @ 0x08000740) -- Updating C cache (128 bytes @ 0x08000740) -- Read from C cache (60 bytes @ 0x08000778) -- Data:  AC 81 09 B0 F0 BD 00 00 F3 E9 FF FF 00 38 01 40 ...  returns 0x00 (0002ms, 0817ms total)
T2B674 002:250 JLINK_ReadMem (0x080007B4, 0x003C Bytes, ...) -- CPU_ReadMem(64 bytes @ 0x080007C0) -- Updating C cache (64 bytes @ 0x080007C0) -- Read from C cache (60 bytes @ 0x080007B4) -- Data:  A8 88 00 90 21 78 68 46 01 71 A1 78 81 71 E1 78 ...  returns 0x00 (0001ms, 0818ms total)
T2B674 002:251 JLINK_ReadMem (0x080007F0, 0x0010 Bytes, ...) -- Read from C cache (16 bytes @ 0x080007F0) -- Data:  54 00 00 20 70 B5 05 46 29 46 0F 48 00 68 FF F7  returns 0x00 (0000ms, 0818ms total)
T2B674 002:251 JLINK_ReadMem (0x08000800, 0x002C Bytes, ...) -- CPU_ReadMem(64 bytes @ 0x08000800) -- Updating C cache (64 bytes @ 0x08000800) -- Read from C cache (44 bytes @ 0x08000800) -- Data:  77 FC 04 46 0D 48 84 42 01 D9 01 20 0E E0 20 02 ...  returns 0x00 (0001ms, 0819ms total)
T2B674 002:252 JLINK_ReadMem (0x0800082C, 0x003C Bytes, ...) -- CPU_ReadMem(64 bytes @ 0x08000840) -- Updating C cache (64 bytes @ 0x08000840) -- Read from C cache (60 bytes @ 0x0800082C) -- Data:  00 28 01 D0 00 20 70 BD 01 20 FC E7 5C 00 00 20 ...  returns 0x00 (0001ms, 0820ms total)
T2B674 002:253 JLINK_ReadMem (0x08000868, 0x003C Bytes, ...) -- CPU_ReadMem(64 bytes @ 0x08000880) -- Updating C cache (64 bytes @ 0x08000880) -- Read from C cache (60 bytes @ 0x08000868) -- Data:  02 4A 88 18 29 46 FF F7 9A FF 70 BD 00 00 00 20 ...  returns 0x00 (0001ms, 0821ms total)
T2B674 002:268 JLINK_ReadMem (0x08000604, 0x003C Bytes, ...) -- CPU_ReadMem(64 bytes @ 0x08000600) -- Updating C cache (64 bytes @ 0x08000600) -- Read from C cache (60 bytes @ 0x08000604) -- Data:  01 A9 0B 48 00 F0 46 F8 01 22 0A 49 08 48 00 F0 ...  returns 0x00 (0001ms, 0822ms total)
T2ECD0 006:468 JLINK_Step() -- Read from C cache (2 bytes @ 0x08000878) -- CPU_ReadMem(4 bytes @ 0xE0001004) -- CPU_WriteMem(16 bytes @ 0x20000470) -- Simulated  returns 0x00 (0003ms, 0825ms total)
T2ECD0 006:471 JLINK_ReadReg(R15 (PC))  returns 0x0800087A (0000ms, 0825ms total)
T2ECD0 006:471 JLINK_ReadReg(XPSR)  returns 0x61000000 (0000ms, 0825ms total)
T2ECD0 006:471 JLINK_ReadReg(R0)  returns 0x08000879 (0000ms, 0825ms total)
T2ECD0 006:471 JLINK_ReadReg(R1)  returns 0x20000480 (0000ms, 0825ms total)
T2ECD0 006:471 JLINK_ReadReg(R2)  returns 0x00000000 (0000ms, 0825ms total)
T2ECD0 006:471 JLINK_ReadReg(R3)  returns 0x08000799 (0000ms, 0825ms total)
T2ECD0 006:471 JLINK_ReadReg(R4)  returns 0x080008F4 (0000ms, 0825ms total)
T2ECD0 006:471 JLINK_ReadReg(R5)  returns 0x00000001 (0000ms, 0825ms total)
T2ECD0 006:471 JLINK_ReadReg(R6)  returns 0x080008F4 (0000ms, 0825ms total)
T2ECD0 006:471 JLINK_ReadReg(R7)  returns 0xFFFFFFFF (0000ms, 0825ms total)
T2ECD0 006:471 JLINK_ReadReg(R8)  returns 0xFFFFFFFF (0000ms, 0825ms total)
T2ECD0 006:471 JLINK_ReadReg(R9)  returns 0xFFFFFFFF (0000ms, 0825ms total)
T2ECD0 006:471 JLINK_ReadReg(R10)  returns 0xFFFFFFFF (0000ms, 0825ms total)
T2ECD0 006:471 JLINK_ReadReg(R11)  returns 0xFFFFFFFF (0000ms, 0825ms total)
T2ECD0 006:471 JLINK_ReadReg(R12)  returns 0xFFFFFFFF (0000ms, 0825ms total)
T2ECD0 006:471 JLINK_ReadReg(R13 (SP))  returns 0x20000470 (0000ms, 0825ms total)
T2ECD0 006:471 JLINK_ReadReg(R14)  returns 0x08000139 (0000ms, 0825ms total)
T2ECD0 006:471 JLINK_ReadReg(R15 (PC))  returns 0x0800087A (0000ms, 0825ms total)
T2ECD0 006:471 JLINK_ReadReg(XPSR)  returns 0x61000000 (0000ms, 0825ms total)
T2ECD0 006:471 JLINK_ReadReg(MSP)  returns 0x20000470 (0000ms, 0825ms total)
T2ECD0 006:471 JLINK_ReadReg(PSP)  returns 0xFFFFFFFC (0000ms, 0825ms total)
T2ECD0 006:471 JLINK_ReadReg(CFBP)  returns 0x00000000 (0000ms, 0825ms total)
T2B674 006:472 JLINK_ReadMem (0x2000047C, 0x0004 Bytes, ...) -- CPU_ReadMem(64 bytes @ 0x20000440) -- Updating C cache (64 bytes @ 0x20000440) -- Read from C cache (4 bytes @ 0x2000047C) -- Data:  39 01 00 08  returns 0x00 (0002ms, 0827ms total)
T2B674 006:474 JLINK_ReadMem (0x48000000, 0x0028 Bytes, ...) -- CPU_ReadMem(40 bytes @ 0x48000000) -- Data:  00 00 00 28 00 00 00 28 00 00 00 28 00 00 00 28 ...  returns 0x00 (0000ms, 0827ms total)
T2B674 006:474 JLINK_ReadMem (0x48000028, 0x0004 Bytes, ...) -- CPU_ReadMem(4 bytes @ 0x48000028) -- Data:  00 00 00 28  returns 0x00 (0001ms, 0828ms total)
T2B674 006:476 JLINK_ReadMem (0x40013800, 0x0028 Bytes, ...) -- CPU_ReadMem(40 bytes @ 0x40013800) -- Data:  00 00 00 00 00 00 00 00 00 00 00 00 00 00 00 00 ...  returns 0x00 (0001ms, 0829ms total)
T2B674 006:477 JLINK_ReadMem (0x40013828, 0x0004 Bytes, ...) -- CPU_ReadMem(4 bytes @ 0x40013828) -- Data:  00 00 00 00  returns 0x00 (0000ms, 0829ms total)
T2B674 006:478 JLINK_ReadMem (0x48000800, 0x0028 Bytes, ...) -- CPU_ReadMem(40 bytes @ 0x48000800) -- Data:  00 00 00 00 00 00 00 00 00 00 00 00 00 00 00 00 ...  returns 0x00 (0001ms, 0830ms total)
T2B674 006:479 JLINK_ReadMem (0x48000828, 0x0004 Bytes, ...) -- CPU_ReadMem(4 bytes @ 0x48000828) -- Data:  00 00 00 00  returns 0x00 (0000ms, 0830ms total)
T2B674 006:481 JLINK_ReadMem (0x08000878, 0x003C Bytes, ...) -- Read from C cache (60 bytes @ 0x08000878) -- Data:  0E B5 0C 49 00 20 FF F7 EF FF 0B 48 00 F0 20 F8 ...  returns 0x00 (0000ms, 0830ms total)
T2ECD0 006:725 JLINK_Step() -- Read from C cache (2 bytes @ 0x0800087A) -- Read from C cache (4 bytes @ 0x080008AC) -- Simulated  returns 0x00 (0000ms, 0830ms total)
T2ECD0 006:725 JLINK_ReadReg(R15 (PC))  returns 0x0800087C (0000ms, 0830ms total)
T2ECD0 006:725 JLINK_ReadReg(XPSR)  returns 0x61000000 (0000ms, 0830ms total)
T2ECD0 006:725 JLINK_Step() -- Read from C cache (2 bytes @ 0x0800087C) -- Simulated  returns 0x00 (0000ms, 0830ms total)
T2ECD0 006:725 JLINK_ReadReg(R15 (PC))  returns 0x0800087E (0000ms, 0830ms total)
T2ECD0 006:725 JLINK_ReadReg(XPSR)  returns 0x61000000 (0000ms, 0830ms total)
T2ECD0 006:725 JLINK_SetBPEx(Addr = 0x08000882, Type = 0xFFFFFFF2)  returns 0x00000003 (0000ms, 0830ms total)
T2ECD0 006:725 JLINK_SetBPEx(Addr = 0x0800089C, Type = 0xFFFFFFF2)  returns 0x00000004 (0000ms, 0830ms total)
T2ECD0 006:725 JLINK_Go() -- CPU_WriteMem(4 bytes @ 0xE0002000) -- CPU_WriteMem(4 bytes @ 0xE0002000) -- CPU_WriteMem(4 bytes @ 0xE0002008) -- CPU_WriteMem(4 bytes @ 0xE0001004) (0005ms, 0835ms total)
T2ECD0 006:830 JLINK_IsHalted()  returns TRUE (0005ms, 0840ms total)
T2ECD0 006:835 JLINK_Halt()  returns 0x00 (0000ms, 0835ms total)
T2ECD0 006:835 JLINK_IsHalted()  returns TRUE (0000ms, 0835ms total)
T2ECD0 006:835 JLINK_IsHalted()  returns TRUE (0000ms, 0835ms total)
T2ECD0 006:835 JLINK_IsHalted()  returns TRUE (0000ms, 0835ms total)
T2ECD0 006:835 JLINK_ReadReg(R15 (PC))  returns 0x08000882 (0000ms, 0835ms total)
T2ECD0 006:835 JLINK_ReadReg(XPSR)  returns 0x61000000 (0000ms, 0835ms total)
T2ECD0 006:835 JLINK_ClrBPEx(BPHandle = 0x00000003)  returns 0x00 (0000ms, 0835ms total)
T2ECD0 006:835 JLINK_ClrBPEx(BPHandle = 0x00000004)  returns 0x00 (0000ms, 0835ms total)
T2ECD0 006:835 JLINK_ReadMemU32(0xE000ED30, 0x0001 Items, ...) -- CPU_ReadMem(4 bytes @ 0xE000ED30) -- Data:  02 00 00 00  returns 0x01 (0000ms, 0835ms total)
T2ECD0 006:835 JLINK_ReadMemU32(0xE0001028, 0x0001 Items, ...) -- CPU_ReadMem(4 bytes @ 0xE0001028) -- Data:  00 00 00 00  returns 0x01 (0001ms, 0836ms total)
T2ECD0 006:836 JLINK_ReadMemU32(0xE0001038, 0x0001 Items, ...) -- CPU_ReadMem(4 bytes @ 0xE0001038) -- Data:  00 00 00 00  returns 0x01 (0001ms, 0837ms total)
T2ECD0 006:837 JLINK_ReadReg(R0)  returns 0x48000800 (0000ms, 0837ms total)
T2ECD0 006:837 JLINK_ReadReg(R1)  returns 0x00000010 (0000ms, 0837ms total)
T2ECD0 006:837 JLINK_ReadReg(R2)  returns 0x00002000 (0000ms, 0837ms total)
T2ECD0 006:837 JLINK_ReadReg(R3)  returns 0x00000101 (0000ms, 0837ms total)
T2ECD0 006:837 JLINK_ReadReg(R4)  returns 0x080008F4 (0000ms, 0837ms total)
T2ECD0 006:837 JLINK_ReadReg(R5)  returns 0x00000001 (0000ms, 0837ms total)
T2ECD0 006:837 JLINK_ReadReg(R6)  returns 0x080008F4 (0000ms, 0837ms total)
T2ECD0 006:837 JLINK_ReadReg(R7)  returns 0xFFFFFFFF (0000ms, 0837ms total)
T2ECD0 006:837 JLINK_ReadReg(R8)  returns 0xFFFFFFFF (0000ms, 0837ms total)
T2ECD0 006:837 JLINK_ReadReg(R9)  returns 0xFFFFFFFF (0000ms, 0837ms total)
T2ECD0 006:837 JLINK_ReadReg(R10)  returns 0xFFFFFFFF (0000ms, 0837ms total)
T2ECD0 006:837 JLINK_ReadReg(R11)  returns 0xFFFFFFFF (0000ms, 0837ms total)
T2ECD0 006:837 JLINK_ReadReg(R12)  returns 0xFFFFFFFF (0000ms, 0837ms total)
T2ECD0 006:837 JLINK_ReadReg(R13 (SP))  returns 0x20000470 (0000ms, 0837ms total)
T2ECD0 006:837 JLINK_ReadReg(R14)  returns 0x080007D3 (0000ms, 0837ms total)
T2ECD0 006:837 JLINK_ReadReg(R15 (PC))  returns 0x08000882 (0000ms, 0837ms total)
T2ECD0 006:837 JLINK_ReadReg(XPSR)  returns 0x61000000 (0000ms, 0837ms total)
T2ECD0 006:837 JLINK_ReadReg(MSP)  returns 0x20000470 (0000ms, 0837ms total)
T2ECD0 006:837 JLINK_ReadReg(PSP)  returns 0xFFFFFFFC (0000ms, 0837ms total)
T2ECD0 006:837 JLINK_ReadReg(CFBP)  returns 0x00000000 (0000ms, 0837ms total)
T2B674 006:837 JLINK_ReadMem (0x2000047C, 0x0004 Bytes, ...) -- CPU_ReadMem(64 bytes @ 0x20000440) -- Updating C cache (64 bytes @ 0x20000440) -- Read from C cache (4 bytes @ 0x2000047C) -- Data:  39 01 00 08  returns 0x00 (0002ms, 0839ms total)
T2B674 006:839 JLINK_ReadMem (0x48000000, 0x0028 Bytes, ...) -- CPU_ReadMem(40 bytes @ 0x48000000) -- Data:  00 00 00 28 00 00 00 28 00 00 00 28 00 00 00 28 ...  returns 0x00 (0001ms, 0840ms total)
T2B674 006:840 JLINK_ReadMem (0x48000028, 0x0004 Bytes, ...) -- CPU_ReadMem(4 bytes @ 0x48000028) -- Data:  00 00 00 28  returns 0x00 (0000ms, 0840ms total)
T2B674 006:841 JLINK_ReadMem (0x40013800, 0x0028 Bytes, ...) -- CPU_ReadMem(40 bytes @ 0x40013800) -- Data:  00 00 00 00 00 00 00 00 00 00 00 00 00 00 00 00 ...  returns 0x00 (0001ms, 0841ms total)
T2B674 006:842 JLINK_ReadMem (0x40013828, 0x0004 Bytes, ...) -- CPU_ReadMem(4 bytes @ 0x40013828) -- Data:  00 00 00 00  returns 0x00 (0000ms, 0841ms total)
T2B674 006:842 JLINK_ReadMem (0x48000800, 0x0028 Bytes, ...) -- CPU_ReadMem(40 bytes @ 0x48000800) -- Data:  00 00 00 04 00 00 00 00 00 00 00 04 00 00 00 00 ...  returns 0x00 (0001ms, 0842ms total)
T2B674 006:843 JLINK_ReadMem (0x48000828, 0x0004 Bytes, ...) -- CPU_ReadMem(4 bytes @ 0x48000828) -- Data:  00 00 00 00  returns 0x00 (0001ms, 0843ms total)
T2B674 006:844 JLINK_ReadMem (0x48000800, 0x0004 Bytes, ...) -- CPU_ReadMem(4 bytes @ 0x48000800) -- Data:  00 00 00 04  returns 0x00 (0000ms, 0843ms total)
T2B674 006:845 JLINK_ReadMem (0x48000800, 0x0004 Bytes, ...) -- CPU_ReadMem(4 bytes @ 0x48000800) -- Data:  00 00 00 04  returns 0x00 (0000ms, 0843ms total)
T2B674 006:845 JLINK_ReadMem (0x48000800, 0x0004 Bytes, ...) -- CPU_ReadMem(4 bytes @ 0x48000800) -- Data:  00 00 00 04  returns 0x00 (0001ms, 0844ms total)
T2B674 006:846 JLINK_ReadMem (0x48000800, 0x0004 Bytes, ...) -- CPU_ReadMem(4 bytes @ 0x48000800) -- Data:  00 00 00 04  returns 0x00 (0000ms, 0844ms total)
T2B674 006:846 JLINK_ReadMem (0x48000800, 0x0004 Bytes, ...) -- CPU_ReadMem(4 bytes @ 0x48000800) -- Data:  00 00 00 04  returns 0x00 (0001ms, 0845ms total)
T2B674 006:847 JLINK_ReadMem (0x48000800, 0x0004 Bytes, ...) -- CPU_ReadMem(4 bytes @ 0x48000800) -- Data:  00 00 00 04  returns 0x00 (0001ms, 0846ms total)
T2B674 006:848 JLINK_ReadMem (0x48000800, 0x0004 Bytes, ...) -- CPU_ReadMem(4 bytes @ 0x48000800) -- Data:  00 00 00 04  returns 0x00 (0001ms, 0847ms total)
T2B674 006:849 JLINK_ReadMem (0x48000800, 0x0004 Bytes, ...) -- CPU_ReadMem(4 bytes @ 0x48000800) -- Data:  00 00 00 04  returns 0x00 (0000ms, 0847ms total)
T2B674 006:849 JLINK_ReadMem (0x48000800, 0x0004 Bytes, ...) -- CPU_ReadMem(4 bytes @ 0x48000800) -- Data:  00 00 00 04  returns 0x00 (0001ms, 0848ms total)
T2B674 006:850 JLINK_ReadMem (0x48000800, 0x0004 Bytes, ...) -- CPU_ReadMem(4 bytes @ 0x48000800) -- Data:  00 00 00 04  returns 0x00 (0000ms, 0848ms total)
